Circuit: * C:\Users\alexi\OneDrive - USherbrooke\Uni\S1\APP6\Problématique.asc

Direct Newton iteration failed to find .op point.  (Use ".option noopiter" to skip.)
Starting Gmin stepping
Gmin = 10
Gmin = 1.07374
vernier = 0.5
vernier = 0.25
vernier = 0.125
vernier = 0.0625
Gmin = 1.08884
vernier = 0.03125
vernier = 0.015625
Gmin = 1.03122
vernier = 0.0078125
vernier = 0.0104167
vernier = 0.00520833
Gmin = 1.01988
vernier = 0.00260417
vernier = 0.00347222
Gmin = 1.01305
vernier = 0.00173611
vernier = 0.00231481
vernier = 0.00115741
Gmin = 1.01085
vernier = 0.00154321
vernier = 0.000771604
Gmin = 1.00871
vernier = 0.00102881
vernier = 0.000514403
Gmin = 1.00715
vernier = 0.00068587
vernier = 0.000514403
Gmin = 1.0059
vernier = 0.00068587
vernier = 0.000514402
Gmin = 0
Gmin stepping failed

Starting source stepping with srcstepmethod=0
Source Step = 3.0303%
Source Step = 15.9091%
Source Step = 17.803%
Source Step = 19.697%
Source Step = 21.5909%
Source Step = 23.4848%
vernier = 0.09375
Source Step = 25.6629%
Source Step = 28.5038%
Source Step = 31.3447%
Source Step = 34.1856%
Source Step = 37.0265%
vernier = 0.140625
Source Step = 40.1515%
Source Step = 44.4129%
Source Step = 48.6742%
Source Step = 52.9356%
Source Step = 57.197%
vernier = 0.210938
Source Step = 61.6714%
Source Step = 68.0634%
Source Step = 74.4555%
Source Step = 80.8475%
Source Step = 87.2396%
Source Step = 93.6316%
vernier = 0.316406
Source stepping succeeded in finding the operating point.

Semiconductor Device Operating Points:
                        --- Diodes ---
Name:    d:u2:2      d:u2:4      d:u2:3      d:u2:6      d:u2:1
Model:    u2:iq       u2:x2       u2:x1       u2:y        u2:y
Id:      3.50e-04    1.10e-04   -2.30e-10    2.30e-19   -2.30e-19
Vd:      2.40e+01   -1.00e+00   -2.30e+01    2.30e-07   -2.30e-07
Req:     5.00e-04    5.00e-04    1.00e-11    1.00e-12    1.00e-12
CAP:     0.00e+00    0.00e+00    0.00e+00    0.00e+00    0.00e+00

Name:    d:u1:2      d:u1:4      d:u1:3      d:u1:6      d:u1:1
Model:    u1:iq       u1:x2       u1:x1       u1:y        u1:y
Id:      3.50e-04    1.08e-04   -2.30e-10    3.93e-21   -3.93e-21
Vd:      2.40e+01   -1.00e+00   -2.30e+01    3.92e-09   -3.92e-09
Req:     5.00e-04    5.00e-04    1.00e-11    1.00e-12    1.00e-12
CAP:     0.00e+00    0.00e+00    0.00e+00    0.00e+00    0.00e+00

Name:      d3          d2          d1
Model:   1n4148      1n4148      1n4148
Id:     -2.53e-09    2.03e-10   -1.88e-10
Vd:     -1.10e+01    3.51e-03   -3.51e-03
Req:     1.00e+12    1.66e+07    1.94e+07
CAP:     1.48e-12    4.01e-12    4.00e-12

                        --- VDMOSFET Transistors ---
Name:        m:u2:2      m:u2:1      m:u1:2      m:u1:1
Model:        u2:p        u2:n        u1:p        u1:n
Id:         -1.08e-03    1.08e-03   -1.08e-03    1.08e-03
Vgs:        -2.30e-07   -2.30e-07   -3.92e-09   -3.92e-09
Vds:        -1.00e+00    2.30e+01   -1.00e+00    2.30e+01
Vth:         2.50e-01   -2.50e-01    2.50e-01   -2.50e-01
Gm:          5.60e-03    5.60e-03    5.60e-03    5.60e-03
Gds:         0.00e+00    0.00e+00    0.00e+00    0.00e+00
Cgs:         0.00e+00    0.00e+00    0.00e+00    0.00e+00
Cgd:         0.00e+00    0.00e+00    0.00e+00    0.00e+00
Cbody:       0.00e+00    0.00e+00    0.00e+00    0.00e+00



Date: Wed Nov 23 15:02:28 2022
Total elapsed time: 0.137 seconds.

tnom = 27
temp = 27
method = trap
totiter = 7230
traniter = 0
tranpoints = 0
accept = 0
rejected = 0
matrix size = 36
fillins = 4
solver = Normal
Matrix Compiler1: 1.72 KB object code size
Matrix Compiler2: off  [0.3]/0.3/0.3

